Circuit: * U:\Windows\Bureau\3MIC\BE_CHTI\LTSPICE\Draft1.asc

Direct Newton iteration failed to find .op point.  (Use ".option noopiter" to skip.)
Starting Gmin stepping
Gmin = 10
Gmin = 1.07374
vernier = 0.5
vernier = 0.25
vernier = 0.125
vernier = 0.0625
Gmin = 1.08884
vernier = 0.03125
vernier = 0.015625
Gmin = 1.03122
vernier = 0.0078125
vernier = 0.0104167
vernier = 0.00520833
Gmin = 1.01724
vernier = 0.00260417
vernier = 0.00347222
Gmin = 1.01042
vernier = 0.00173611
vernier = 0.00231481
vernier = 0.00115741
Gmin = 1.00852
vernier = 0.00154321
vernier = 0.000771604
Gmin = 1.00667
vernier = 0.00102881
vernier = 0.000514403
vernier = 0.00068587
Gmin = 1.00542
vernier = 0.000514403
vernier = 0.00068587
vernier = 0.000514402
Gmin = 1.00461
Gmin = 0
Gmin stepping failed

Starting source stepping with srcstepmethod=0
Source Step = 3.0303%
Source Step = 18.1937%
vernier = 0.000976563
Source Step = 18.2114%
Source Step = 18.241%
Source Step = 18.2706%
Source Step = 18.3002%
Source Step = 18.3298%
vernier = 0.00146484
Source Step = 18.3712%
Source Step = 18.4156%
Source Step = 18.46%
Source Step = 18.5044%
Source Step = 18.5488%
vernier = 0.00219727
Source Step = 18.6087%
Source Step = 18.6753%
Source Step = 18.7419%
Source Step = 18.8084%
Source Step = 18.875%
vernier = 0.0032959
Source Step = 18.9616%
Source Step = 19.0615%
Source Step = 19.1613%
Source Step = 19.2612%
Source Step = 19.3611%
vernier = 0.00494385
Source Step = 19.4859%
Source Step = 19.6357%
Source Step = 19.7856%
Source Step = 19.9354%
Source Step = 20.0852%
vernier = 0.00741577
Source Step = 20.265%
Source Step = 20.4897%
Source Step = 20.7144%
Source Step = 20.9391%
Source Step = 21.1638%
vernier = 0.0111237
Source Step = 21.4223%
Source Step = 21.7594%
Source Step = 22.0964%
Source Step = 22.4335%
Source Step = 22.7706%
vernier = 0.0166855
Source Step = 23.1414%
Source Step = 23.647%
Source Step = 24.1526%
Source Step = 24.6582%
Source Step = 25.1639%
vernier = 0.0250282
Source Step = 25.6948%
Source Step = 26.4532%
Source Step = 27.2116%
Source Step = 27.9701%
Source Step = 28.7285%
Source Step = 29.4869%
vernier = 0.0375423
Source Step = 30.6246%
Source Step = 31.7622%
Source Step = 32.8999%
Source Step = 34.0375%
Source Step = 35.1752%
vernier = 0.0563135
Source Step = 36.8247%
Source Step = 38.5312%
Source Step = 40.2377%
Source Step = 41.9442%
Source Step = 43.6506%
vernier = 0.0844703
Source Step = 46.0397%
Source Step = 48.5994%
Source Step = 51.1591%
Source Step = 53.7188%
Source Step = 56.2785%
vernier = 0.126705
Source Step = 59.7341%
Source Step = 63.5737%
Source Step = 67.4132%
Source Step = 71.2528%
Source Step = 75.0923%
vernier = 0.190058
Source Step = 80.0838%
Source Step = 85.8431%
Source Step = 91.6024%
Source Step = 97.3618%
Source stepping succeeded in finding the operating point.

Semiconductor Device Operating Points:
                        --- Diodes ---
Name:    d:u2:3      d:u2:6      d:u2:5      d:u2:4      d:u2:1
Model:    u2:dc       u2:y        u2:y        u2:x        u2:x
Id:      1.00e-04    5.78e-40   -5.78e-40   -9.00e-11   -9.00e-11
Vd:      1.80e+01    5.77e-28   -5.77e-28   -9.00e+00   -9.00e+00
Req:     1.00e-02    1.00e-12    1.00e-12    1.00e-11    1.00e-11
CAP:     0.00e+00    0.00e+00    0.00e+00    0.00e+00    0.00e+00

Name:    d:u1:3      d:u1:6      d:u1:5      d:u1:4      d:u1:1
Model:    u1:dc       u1:y        u1:y        u1:x        u1:x
Id:      1.00e-04   -4.62e-40    4.62e-40   -9.00e-11   -9.00e-11
Vd:      1.80e+01   -4.62e-28    4.62e-28   -9.00e+00   -9.00e+00
Req:     1.00e-02    1.00e-12    1.00e-12    1.00e-11    1.00e-11
CAP:     0.00e+00    0.00e+00    0.00e+00    0.00e+00    0.00e+00

                        --- VDMOSFET Transistors ---
Name:        m:u2:2      m:u2:1      m:u1:2      m:u1:1
Model:        u2:p        u2:n        u1:p        u1:n
Id:         -2.70e-03    2.70e-03   -2.70e-03    2.70e-03
Vgs:        -5.77e-28   -5.77e-28    4.62e-28    4.62e-28
Vds:        -9.00e+00    9.00e+00   -9.00e+00    9.00e+00
Vth:         3.00e-01   -3.00e-01    3.00e-01   -3.00e-01
Gm:          1.80e-02    1.80e-02    1.80e-02    1.80e-02
Gds:         0.00e+00    0.00e+00    0.00e+00    0.00e+00
Cgs:         0.00e+00    0.00e+00    0.00e+00    0.00e+00
Cgd:         0.00e+00    0.00e+00    0.00e+00    0.00e+00
Cbody:       0.00e+00    0.00e+00    0.00e+00    0.00e+00



Date: Mon Feb 07 09:17:45 2022
Total elapsed time: 0.192 seconds.

tnom = 27
temp = 27
method = trap
totiter = 8809
traniter = 0
tranpoints = 0
accept = 0
rejected = 0
matrix size = 19
fillins = 14
solver = Normal
Matrix Compiler1:      75 opcodes
Matrix Compiler2: off  [0.2]/0.2/0.2

